====================================================
  JasperGold - Superlint Violation/Property Report  
====================================================

---[ <Report Information> ]-------------------
----------------------------------------------
 Num  | module     | created date             
----------------------------------------------
[1]     apb_ms_top   Jan 09 09:52:56 IST 2026 


********************************************************************************************

VIOLATIONS SUMMARY
---[ <Domain: LINT> ]-----------------------------------------
--------------------------------------------------------------
 Num  | Category    | Error | Warning | Info | Waived | Total 
--------------------------------------------------------------
[1]     CODINGSTYLE   0       4         0      11       15    
[2]     STRUCTURAL    0       2         0      24       26    
[3]     Total         0       6         0      35       41    

---[ <CODINGSTYLE> ]---------------------------------------------------------------------------------------------------------------------------------------------------------------------------------------------------------------------------------------------------------------------------------------------------------------------------------------------
-----------------------------------------------------------------------------------------------------------------------------------------------------------------------------------------------------------------------------------------------------------------------------------------------------------------------------------------------------------------
 Num  | Severity                                                                                         | Tag         | Message                                                                                                                                                 | Source Location                     | Instance-Module       | Grouping Status 
-----------------------------------------------------------------------------------------------------------------------------------------------------------------------------------------------------------------------------------------------------------------------------------------------------------------------------------------------------------------
[1]     Waived (not needed lint checks )                                                                   CAS_NR_DEFX   "Signal 'out' assigned in case statement is not assigned to X in default case"                                                                            /home/mukeshh/APB/decoder.v :6        *-decoder               -               
[2]     Warning                                                                                            CAS_NR_DEFX   "Signal 'pwdata' assigned in case statement is not assigned to X in default case"                                                                         /home/mukeshh/APB/apb_master.v :40    *-apb_master            Grouped         
[3]     Warning                                                                                            CAS_NR_DEFX   "Signal 'pready' assigned in case statement is not assigned to X in default case"                                                                         /home/mukeshh/APB/apb_slave.v :37     *-apb_slave             Grouped         
[4]     Warning                                                                                            FLP_NR_MXCS   "Combinational logic detected in sequential block for flop 'penable'"                                                                                     /home/mukeshh/APB/apb_master.v :30    f1-apb_master           Grouped         
[5]     Warning                                                                                            FLP_NR_MXCS   "Combinational logic detected in sequential block for flop 'apb_addr_buff'"                                                                               /home/mukeshh/APB/apb_slave.v :25     f2-apb_slave            Grouped         
[6]     Waived (not needed lint checks )                                                                   IDN_NR_VHKW   "VHDL reserved word 'in' used as an identifier or label"                                                                                                  /home/mukeshh/APB/decoder.v :2        *-decoder               -               
[7]     Waived (not needed lint checks )                                                                   IDN_NR_VHKW   "VHDL reserved word 'out' used as an identifier or label"                                                                                                 /home/mukeshh/APB/decoder.v :3        *-decoder               -               
[8]     Waived (selection comes from master intended design )                                              OTP_NR_ASYA   "Output port 'f1.f1.out' is assigned asynchronously"                                                                                                      /home/mukeshh/APB/decoder.v :3        f1.f1-decoder           -               
[9]     Waived (we have only 1 apb_slave as of now except psel1 all the other sel lines are not in use )   OTP_UC_INST   "Port 'psel2' (which is being used as an output) of design-unit 'apb_master' is being driven inside the design, but not connected in its instance 'f1'"   /home/mukeshh/APB/apb_ms_top.v :25    apb_ms_top-apb_ms_top   -               
[10]    Waived (we have only 1 apb_slave as of now except psel1 all the other sel lines are not in use )   OTP_UC_INST   "Port 'psel3' (which is being used as an output) of design-unit 'apb_master' is being driven inside the design, but not connected in its instance 'f1'"   /home/mukeshh/APB/apb_ms_top.v :25    apb_ms_top-apb_ms_top   -               
[11]    Waived (we have only 1 apb_slave as of now except psel1 all the other sel lines are not in use )   OTP_UC_INST   "Port 'psel4' (which is being used as an output) of design-unit 'apb_master' is being driven inside the design, but not connected in its instance 'f1'"   /home/mukeshh/APB/apb_ms_top.v :25    apb_ms_top-apb_ms_top   -               
[12]    Waived (intended design )                                                                          REG_NO_READ   "Local register variable 'prdata_buff' is not read, but is assigned at least once in module 'apb_master'"                                                 /home/mukeshh/APB/apb_master.v :23    *-apb_master            -               
[13]    Waived (we have only one slave )                                                                   WIR_NO_READ   "Wire 'p_sel2_w' declared in module 'apb_ms_top' does not drive any object, but is assigned at least once"                                                /home/mukeshh/APB/apb_ms_top.v :22    *-apb_ms_top            -               
[14]    Waived (we have only one slave )                                                                   WIR_NO_READ   "Wire 'p_sel3_w' declared in module 'apb_ms_top' does not drive any object, but is assigned at least once"                                                /home/mukeshh/APB/apb_ms_top.v :22    *-apb_ms_top            -               
[15]    Waived (we have only one slave )                                                                   WIR_NO_READ   "Wire 'p_sel4_w' declared in module 'apb_ms_top' does not drive any object, but is assigned at least once"                                                /home/mukeshh/APB/apb_ms_top.v :22    *-apb_ms_top            -               

---[ <STRUCTURAL> ]-------------------------------------------------------------------------------------------------------------------------------------------------------------------------------------------------------------------------------------------------------------------------------------------------------------
--------------------------------------------------------------------------------------------------------------------------------------------------------------------------------------------------------------------------------------------------------------------------------------------------------------------------------
 Num  | Severity                                                                                                                             | Tag         | Message                                                                            | Source Location                     | Instance-Module       | Grouping Status 
--------------------------------------------------------------------------------------------------------------------------------------------------------------------------------------------------------------------------------------------------------------------------------------------------------------------------------
[1]     Warning                                                                                                                                FLP_NO_ASRT   "Flip-flop 'paddr' does not have any asynchronous set or reset"                      /home/mukeshh/APB/apb_master.v :30    f1-apb_master           Grouped         
[2]     Warning                                                                                                                                FLP_NO_ASRT   "Flip-flop 'apb_addr_buff' does not have any asynchronous set or reset"              /home/mukeshh/APB/apb_slave.v :25     f2-apb_slave            Grouped         
[3]     Waived (all these signals comes from an external interface like AXI or AHB to te APB bridge so they will be registered accordingly )   INS_NR_INPR   "Input port 'f1.f1.in' of instance 'f1.f1' is not a register"                        /home/mukeshh/APB/decoder.v :2        f1.f1-decoder           -               
[4]     Waived (all these signals comes from an external interface like AXI or AHB to te APB bridge so they will be registered accordingly )   INS_NR_INPR   "Input port 'f1.paddr_in' of instance 'f1' is not a register"                        /home/mukeshh/APB/apb_master.v :12    f1-apb_master           -               
[5]     Waived (all these signals comes from an external interface like AXI or AHB to te APB bridge so they will be registered accordingly )   INS_NR_INPR   "Input port 'f1.prdata' of instance 'f1' is not a register"                          /home/mukeshh/APB/apb_master.v :13    f1-apb_master           -               
[6]     Waived (all these signals comes from an external interface like AXI or AHB to te APB bridge so they will be registered accordingly )   INS_NR_INPR   "Input port 'f1.pready' of instance 'f1' is not a register"                          /home/mukeshh/APB/apb_master.v :8     f1-apb_master           -               
[7]     Waived (all these signals comes from an external interface like AXI or AHB to te APB bridge so they will be registered accordingly )   INS_NR_INPR   "Input port 'f1.psel_in' of instance 'f1' is not a register"                         /home/mukeshh/APB/apb_master.v :10    f1-apb_master           -               
[8]     Waived (all these signals comes from an external interface like AXI or AHB to te APB bridge so they will be registered accordingly )   INS_NR_INPR   "Input port 'f1.pwdata_in' of instance 'f1' is not a register"                       /home/mukeshh/APB/apb_master.v :11    f1-apb_master           -               
[9]     Waived (all these signals comes from an external interface like AXI or AHB to te APB bridge so they will be registered accordingly )   INS_NR_INPR   "Input port 'f1.pwrite_in' of instance 'f1' is not a register"                       /home/mukeshh/APB/apb_master.v :9     f1-apb_master           -               
[10]    Waived (all these signals comes from an external interface like AXI or AHB to te APB bridge so they will be registered accordingly )   INS_NR_INPR   "Input port 'f1.t_valid' of instance 'f1' is not a register"                         /home/mukeshh/APB/apb_master.v :7     f1-apb_master           -               
[11]    Waived (all these signals comes from an external interface like AXI or AHB to te APB bridge so they will be registered accordingly )   INS_NR_INPR   "Input port 'f2.paddr' of instance 'f2' is not a register"                           /home/mukeshh/APB/apb_slave.v :6      f2-apb_slave            -               
[12]    Waived (all these signals comes from an external interface like AXI or AHB to te APB bridge so they will be registered accordingly )   INS_NR_INPR   "Input port 'f2.penable' of instance 'f2' is not a register"                         /home/mukeshh/APB/apb_slave.v :8      f2-apb_slave            -               
[13]    Waived (all these signals comes from an external interface like AXI or AHB to te APB bridge so they will be registered accordingly )   INS_NR_INPR   "Input port 'f2.psel' of instance 'f2' is not a register"                            /home/mukeshh/APB/apb_slave.v :10     f2-apb_slave            -               
[14]    Waived (all these signals comes from an external interface like AXI or AHB to te APB bridge so they will be registered accordingly )   INS_NR_INPR   "Input port 'f2.pwdata' of instance 'f2' is not a register"                          /home/mukeshh/APB/apb_slave.v :7      f2-apb_slave            -               
[15]    Waived (all these signals comes from an external interface like AXI or AHB to te APB bridge so they will be registered accordingly )   INS_NR_INPR   "Input port 'f2.pwrite' of instance 'f2' is not a register"                          /home/mukeshh/APB/apb_slave.v :9      f2-apb_slave            -               
[16]    Waived (all these signals comes from the external intrface they will be registered accordingly )                                       MOD_NO_IPRG   "Input port 'pw_data_in' of top-level design-unit is not registered"                 /home/mukeshh/APB/apb_ms_top.v :10    apb_ms_top-apb_ms_top   -               
[17]    Waived (all these signals comes from the external intrface they will be registered accordingly )                                       MOD_NO_IPRG   "Input port 't_valid' of top-level design-unit is not registered"                    /home/mukeshh/APB/apb_ms_top.v :7     apb_ms_top-apb_ms_top   -               
[18]    Waived (all these signals comes from the external intrface they will be registered accordingly )                                       MOD_NO_IPRG   "Input port 'p_addr_in' of top-level design-unit is not registered"                  /home/mukeshh/APB/apb_ms_top.v :11    apb_ms_top-apb_ms_top   -               
[19]    Waived (all these signals comes from the external intrface they will be registered accordingly )                                       MOD_NO_IPRG   "Input port 'p_sel_in' of top-level design-unit is not registered"                   /home/mukeshh/APB/apb_ms_top.v :9     apb_ms_top-apb_ms_top   -               
[20]    Waived (all these signals comes from the external intrface they will be registered accordingly )                                       MOD_NO_IPRG   "Input port 'p_write_in' of top-level design-unit is not registered"                 /home/mukeshh/APB/apb_ms_top.v :8     apb_ms_top-apb_ms_top   -               
[21]    Waived (used to verify the design will be removed after functional verification )                                                      MOD_NS_GLGC   "Glue logic inferred in top-level design-unit 'apb_ms_top'"                          /home/mukeshh/APB/apb_ms_top.v :53    apb_ms_top-apb_ms_top   -               
[22]    Waived (used to verify the design will be removed after functional verification )                                                      MOD_NS_GLGC   "Glue logic inferred in top-level design-unit 'apb_ms_top'"                          /home/mukeshh/APB/apb_ms_top.v :54    apb_ms_top-apb_ms_top   -               
[23]    Waived (i used as a looping variable )                                                                                                 NET_NO_LDDR   "Net 'f2.i' declared in design-unit 'apb_slave' neither has driver nor any load"     /home/mukeshh/APB/apb_slave.v :33     f2-apb_slave            -               
[24]    Waived (only one slave is connected to master )                                                                                        NET_NO_LOAD   "Net 'p_sel2_w' declared in design-unit 'apb_ms_top' has a driver but has no load"   /home/mukeshh/APB/apb_ms_top.v :22    apb_ms_top-apb_ms_top   -               
[25]    Waived (only one slave is connected to master )                                                                                        NET_NO_LOAD   "Net 'p_sel3_w' declared in design-unit 'apb_ms_top' has a driver but has no load"   /home/mukeshh/APB/apb_ms_top.v :22    apb_ms_top-apb_ms_top   -               
[26]    Waived (only one slave is connected to master )                                                                                        NET_NO_LOAD   "Net 'p_sel4_w' declared in design-unit 'apb_ms_top' has a driver but has no load"   /home/mukeshh/APB/apb_ms_top.v :22    apb_ms_top-apb_ms_top   -               



********************************************************************************************



[JasperGold 2019.09] [Platform Linux] [Version 2019.09p002 64 bits] [Build date 2019.11.26 18:17:27 PST]
